Title: test opamp acdc
Date: Fri Jun  6 17:12:37  2025
Plotname: Operating Point
Flags: real
No. Variables: 669
No. Points: 1
Variables:
	0	v(vdd)	voltage
	1	gmbs_m0	notype
	2	gm_m0	notype
	3	gds_m0	notype
	4	vdsat_m0	notype
	5	vth_m0	notype
	6	i(id_m0)	current
	7	ibd_m0	notype
	8	ibs_m0	notype
	9	gbd_m0	notype
	10	gbs_m0	notype
	11	isub_m0	notype
	12	igidl_m0	notype
	13	igisl_m0	notype
	14	igs_m0	notype
	15	igd_m0	notype
	16	igb_m0	notype
	17	igcs_m0	notype
	18	vbs_m0	notype
	19	vgs_m0	notype
	20	vds_m0	notype
	21	cgs_m0	notype
	22	cgd_m0	notype
	23	cbd_m0	notype
	24	cdg_m0	notype
	25	csg_m0	notype
	26	cdb_m0	notype
	27	gmbs_m1	notype
	28	gm_m1	notype
	29	gds_m1	notype
	30	vdsat_m1	notype
	31	vth_m1	notype
	32	i(id_m1)	current
	33	ibd_m1	notype
	34	ibs_m1	notype
	35	gbd_m1	notype
	36	gbs_m1	notype
	37	isub_m1	notype
	38	igidl_m1	notype
	39	igisl_m1	notype
	40	igs_m1	notype
	41	igd_m1	notype
	42	igb_m1	notype
	43	igcs_m1	notype
	44	vbs_m1	notype
	45	vgs_m1	notype
	46	vds_m1	notype
	47	cgs_m1	notype
	48	cgd_m1	notype
	49	cbd_m1	notype
	50	cdg_m1	notype
	51	csg_m1	notype
	52	cdb_m1	notype
	53	gmbs_m2	notype
	54	gm_m2	notype
	55	gds_m2	notype
	56	vdsat_m2	notype
	57	vth_m2	notype
	58	i(id_m2)	current
	59	ibd_m2	notype
	60	ibs_m2	notype
	61	gbd_m2	notype
	62	gbs_m2	notype
	63	isub_m2	notype
	64	igidl_m2	notype
	65	igisl_m2	notype
	66	igs_m2	notype
	67	igd_m2	notype
	68	igb_m2	notype
	69	igcs_m2	notype
	70	vbs_m2	notype
	71	vgs_m2	notype
	72	vds_m2	notype
	73	cgs_m2	notype
	74	cgd_m2	notype
	75	cbd_m2	notype
	76	cdg_m2	notype
	77	csg_m2	notype
	78	cdb_m2	notype
	79	gmbs_m3	notype
	80	gm_m3	notype
	81	gds_m3	notype
	82	vdsat_m3	notype
	83	vth_m3	notype
	84	i(id_m3)	current
	85	ibd_m3	notype
	86	ibs_m3	notype
	87	gbd_m3	notype
	88	gbs_m3	notype
	89	isub_m3	notype
	90	igidl_m3	notype
	91	igisl_m3	notype
	92	igs_m3	notype
	93	igd_m3	notype
	94	igb_m3	notype
	95	igcs_m3	notype
	96	vbs_m3	notype
	97	vgs_m3	notype
	98	vds_m3	notype
	99	cgs_m3	notype
	100	cgd_m3	notype
	101	cbd_m3	notype
	102	cdg_m3	notype
	103	csg_m3	notype
	104	cdb_m3	notype
	105	gmbs_m4	notype
	106	gm_m4	notype
	107	gds_m4	notype
	108	vdsat_m4	notype
	109	vth_m4	notype
	110	i(id_m4)	current
	111	ibd_m4	notype
	112	ibs_m4	notype
	113	gbd_m4	notype
	114	gbs_m4	notype
	115	isub_m4	notype
	116	igidl_m4	notype
	117	igisl_m4	notype
	118	igs_m4	notype
	119	igd_m4	notype
	120	igb_m4	notype
	121	igcs_m4	notype
	122	vbs_m4	notype
	123	vgs_m4	notype
	124	vds_m4	notype
	125	cgs_m4	notype
	126	cgd_m4	notype
	127	cbd_m4	notype
	128	cdg_m4	notype
	129	csg_m4	notype
	130	cdb_m4	notype
	131	gmbs_m5	notype
	132	gm_m5	notype
	133	gds_m5	notype
	134	vdsat_m5	notype
	135	vth_m5	notype
	136	i(id_m5)	current
	137	ibd_m5	notype
	138	ibs_m5	notype
	139	gbd_m5	notype
	140	gbs_m5	notype
	141	isub_m5	notype
	142	igidl_m5	notype
	143	igisl_m5	notype
	144	igs_m5	notype
	145	igd_m5	notype
	146	igb_m5	notype
	147	igcs_m5	notype
	148	vbs_m5	notype
	149	vgs_m5	notype
	150	vds_m5	notype
	151	cgs_m5	notype
	152	cgd_m5	notype
	153	cbd_m5	notype
	154	cdg_m5	notype
	155	csg_m5	notype
	156	cdb_m5	notype
	157	gmbs_m6	notype
	158	gm_m6	notype
	159	gds_m6	notype
	160	vdsat_m6	notype
	161	vth_m6	notype
	162	i(id_m6)	current
	163	ibd_m6	notype
	164	ibs_m6	notype
	165	gbd_m6	notype
	166	gbs_m6	notype
	167	isub_m6	notype
	168	igidl_m6	notype
	169	igisl_m6	notype
	170	igs_m6	notype
	171	igd_m6	notype
	172	igb_m6	notype
	173	igcs_m6	notype
	174	vbs_m6	notype
	175	vgs_m6	notype
	176	vds_m6	notype
	177	cgs_m6	notype
	178	cgd_m6	notype
	179	cbd_m6	notype
	180	cdg_m6	notype
	181	csg_m6	notype
	182	cdb_m6	notype
	183	gmbs_m7	notype
	184	gm_m7	notype
	185	gds_m7	notype
	186	vdsat_m7	notype
	187	vth_m7	notype
	188	i(id_m7)	current
	189	ibd_m7	notype
	190	ibs_m7	notype
	191	gbd_m7	notype
	192	gbs_m7	notype
	193	isub_m7	notype
	194	igidl_m7	notype
	195	igisl_m7	notype
	196	igs_m7	notype
	197	igd_m7	notype
	198	igb_m7	notype
	199	igcs_m7	notype
	200	vbs_m7	notype
	201	vgs_m7	notype
	202	vds_m7	notype
	203	cgs_m7	notype
	204	cgd_m7	notype
	205	cbd_m7	notype
	206	cdg_m7	notype
	207	csg_m7	notype
	208	cdb_m7	notype
	209	gmbs_m8	notype
	210	gm_m8	notype
	211	gds_m8	notype
	212	vdsat_m8	notype
	213	vth_m8	notype
	214	i(id_m8)	current
	215	ibd_m8	notype
	216	ibs_m8	notype
	217	gbd_m8	notype
	218	gbs_m8	notype
	219	isub_m8	notype
	220	igidl_m8	notype
	221	igisl_m8	notype
	222	igs_m8	notype
	223	igd_m8	notype
	224	igb_m8	notype
	225	igcs_m8	notype
	226	vbs_m8	notype
	227	vgs_m8	notype
	228	vds_m8	notype
	229	cgs_m8	notype
	230	cgd_m8	notype
	231	cbd_m8	notype
	232	cdg_m8	notype
	233	csg_m8	notype
	234	cdb_m8	notype
	235	gmbs_m9	notype
	236	gm_m9	notype
	237	gds_m9	notype
	238	vdsat_m9	notype
	239	vth_m9	notype
	240	i(id_m9)	current
	241	ibd_m9	notype
	242	ibs_m9	notype
	243	gbd_m9	notype
	244	gbs_m9	notype
	245	isub_m9	notype
	246	igidl_m9	notype
	247	igisl_m9	notype
	248	igs_m9	notype
	249	igd_m9	notype
	250	igb_m9	notype
	251	igcs_m9	notype
	252	vbs_m9	notype
	253	vgs_m9	notype
	254	vds_m9	notype
	255	cgs_m9	notype
	256	cgd_m9	notype
	257	cbd_m9	notype
	258	cdg_m9	notype
	259	csg_m9	notype
	260	cdb_m9	notype
	261	gmbs_m10	notype
	262	gm_m10	notype
	263	gds_m10	notype
	264	vdsat_m10	notype
	265	vth_m10	notype
	266	i(id_m10)	current
	267	ibd_m10	notype
	268	ibs_m10	notype
	269	gbd_m10	notype
	270	gbs_m10	notype
	271	isub_m10	notype
	272	igidl_m10	notype
	273	igisl_m10	notype
	274	igs_m10	notype
	275	igd_m10	notype
	276	igb_m10	notype
	277	igcs_m10	notype
	278	vbs_m10	notype
	279	vgs_m10	notype
	280	vds_m10	notype
	281	cgs_m10	notype
	282	cgd_m10	notype
	283	cbd_m10	notype
	284	cdg_m10	notype
	285	csg_m10	notype
	286	cdb_m10	notype
	287	gmbs_m11	notype
	288	gm_m11	notype
	289	gds_m11	notype
	290	vdsat_m11	notype
	291	vth_m11	notype
	292	i(id_m11)	current
	293	ibd_m11	notype
	294	ibs_m11	notype
	295	gbd_m11	notype
	296	gbs_m11	notype
	297	isub_m11	notype
	298	igidl_m11	notype
	299	igisl_m11	notype
	300	igs_m11	notype
	301	igd_m11	notype
	302	igb_m11	notype
	303	igcs_m11	notype
	304	vbs_m11	notype
	305	vgs_m11	notype
	306	vds_m11	notype
	307	cgs_m11	notype
	308	cgd_m11	notype
	309	cbd_m11	notype
	310	cdg_m11	notype
	311	csg_m11	notype
	312	cdb_m11	notype
	313	gmbs_m12	notype
	314	gm_m12	notype
	315	gds_m12	notype
	316	vdsat_m12	notype
	317	vth_m12	notype
	318	i(id_m12)	current
	319	ibd_m12	notype
	320	ibs_m12	notype
	321	gbd_m12	notype
	322	gbs_m12	notype
	323	isub_m12	notype
	324	igidl_m12	notype
	325	igisl_m12	notype
	326	igs_m12	notype
	327	igd_m12	notype
	328	igb_m12	notype
	329	igcs_m12	notype
	330	vbs_m12	notype
	331	vgs_m12	notype
	332	vds_m12	notype
	333	cgs_m12	notype
	334	cgd_m12	notype
	335	cbd_m12	notype
	336	cdg_m12	notype
	337	csg_m12	notype
	338	cdb_m12	notype
	339	gmbs_m13	notype
	340	gm_m13	notype
	341	gds_m13	notype
	342	vdsat_m13	notype
	343	vth_m13	notype
	344	i(id_m13)	current
	345	ibd_m13	notype
	346	ibs_m13	notype
	347	gbd_m13	notype
	348	gbs_m13	notype
	349	isub_m13	notype
	350	igidl_m13	notype
	351	igisl_m13	notype
	352	igs_m13	notype
	353	igd_m13	notype
	354	igb_m13	notype
	355	igcs_m13	notype
	356	vbs_m13	notype
	357	vgs_m13	notype
	358	vds_m13	notype
	359	cgs_m13	notype
	360	cgd_m13	notype
	361	cbd_m13	notype
	362	cdg_m13	notype
	363	csg_m13	notype
	364	cdb_m13	notype
	365	gmbs_m14	notype
	366	gm_m14	notype
	367	gds_m14	notype
	368	vdsat_m14	notype
	369	vth_m14	notype
	370	i(id_m14)	current
	371	ibd_m14	notype
	372	ibs_m14	notype
	373	gbd_m14	notype
	374	gbs_m14	notype
	375	isub_m14	notype
	376	igidl_m14	notype
	377	igisl_m14	notype
	378	igs_m14	notype
	379	igd_m14	notype
	380	igb_m14	notype
	381	igcs_m14	notype
	382	vbs_m14	notype
	383	vgs_m14	notype
	384	vds_m14	notype
	385	cgs_m14	notype
	386	cgd_m14	notype
	387	cbd_m14	notype
	388	cdg_m14	notype
	389	csg_m14	notype
	390	cdb_m14	notype
	391	gmbs_m15	notype
	392	gm_m15	notype
	393	gds_m15	notype
	394	vdsat_m15	notype
	395	vth_m15	notype
	396	i(id_m15)	current
	397	ibd_m15	notype
	398	ibs_m15	notype
	399	gbd_m15	notype
	400	gbs_m15	notype
	401	isub_m15	notype
	402	igidl_m15	notype
	403	igisl_m15	notype
	404	igs_m15	notype
	405	igd_m15	notype
	406	igb_m15	notype
	407	igcs_m15	notype
	408	vbs_m15	notype
	409	vgs_m15	notype
	410	vds_m15	notype
	411	cgs_m15	notype
	412	cgd_m15	notype
	413	cbd_m15	notype
	414	cdg_m15	notype
	415	csg_m15	notype
	416	cdb_m15	notype
	417	gmbs_m16	notype
	418	gm_m16	notype
	419	gds_m16	notype
	420	vdsat_m16	notype
	421	vth_m16	notype
	422	i(id_m16)	current
	423	ibd_m16	notype
	424	ibs_m16	notype
	425	gbd_m16	notype
	426	gbs_m16	notype
	427	isub_m16	notype
	428	igidl_m16	notype
	429	igisl_m16	notype
	430	igs_m16	notype
	431	igd_m16	notype
	432	igb_m16	notype
	433	igcs_m16	notype
	434	vbs_m16	notype
	435	vgs_m16	notype
	436	vds_m16	notype
	437	cgs_m16	notype
	438	cgd_m16	notype
	439	cbd_m16	notype
	440	cdg_m16	notype
	441	csg_m16	notype
	442	cdb_m16	notype
	443	gmbs_m17	notype
	444	gm_m17	notype
	445	gds_m17	notype
	446	vdsat_m17	notype
	447	vth_m17	notype
	448	i(id_m17)	current
	449	ibd_m17	notype
	450	ibs_m17	notype
	451	gbd_m17	notype
	452	gbs_m17	notype
	453	isub_m17	notype
	454	igidl_m17	notype
	455	igisl_m17	notype
	456	igs_m17	notype
	457	igd_m17	notype
	458	igb_m17	notype
	459	igcs_m17	notype
	460	vbs_m17	notype
	461	vgs_m17	notype
	462	vds_m17	notype
	463	cgs_m17	notype
	464	cgd_m17	notype
	465	cbd_m17	notype
	466	cdg_m17	notype
	467	csg_m17	notype
	468	cdb_m17	notype
	469	gmbs_m18	notype
	470	gm_m18	notype
	471	gds_m18	notype
	472	vdsat_m18	notype
	473	vth_m18	notype
	474	i(id_m18)	current
	475	ibd_m18	notype
	476	ibs_m18	notype
	477	gbd_m18	notype
	478	gbs_m18	notype
	479	isub_m18	notype
	480	igidl_m18	notype
	481	igisl_m18	notype
	482	igs_m18	notype
	483	igd_m18	notype
	484	igb_m18	notype
	485	igcs_m18	notype
	486	vbs_m18	notype
	487	vgs_m18	notype
	488	vds_m18	notype
	489	cgs_m18	notype
	490	cgd_m18	notype
	491	cbd_m18	notype
	492	cdg_m18	notype
	493	csg_m18	notype
	494	cdb_m18	notype
	495	gmbs_m19	notype
	496	gm_m19	notype
	497	gds_m19	notype
	498	vdsat_m19	notype
	499	vth_m19	notype
	500	i(id_m19)	current
	501	ibd_m19	notype
	502	ibs_m19	notype
	503	gbd_m19	notype
	504	gbs_m19	notype
	505	isub_m19	notype
	506	igidl_m19	notype
	507	igisl_m19	notype
	508	igs_m19	notype
	509	igd_m19	notype
	510	igb_m19	notype
	511	igcs_m19	notype
	512	vbs_m19	notype
	513	vgs_m19	notype
	514	vds_m19	notype
	515	cgs_m19	notype
	516	cgd_m19	notype
	517	cbd_m19	notype
	518	cdg_m19	notype
	519	csg_m19	notype
	520	cdb_m19	notype
	521	gmbs_m20	notype
	522	gm_m20	notype
	523	gds_m20	notype
	524	vdsat_m20	notype
	525	vth_m20	notype
	526	i(id_m20)	current
	527	ibd_m20	notype
	528	ibs_m20	notype
	529	gbd_m20	notype
	530	gbs_m20	notype
	531	isub_m20	notype
	532	igidl_m20	notype
	533	igisl_m20	notype
	534	igs_m20	notype
	535	igd_m20	notype
	536	igb_m20	notype
	537	igcs_m20	notype
	538	vbs_m20	notype
	539	vgs_m20	notype
	540	vds_m20	notype
	541	cgs_m20	notype
	542	cgd_m20	notype
	543	cbd_m20	notype
	544	cdg_m20	notype
	545	csg_m20	notype
	546	cdb_m20	notype
	547	gmbs_m21	notype
	548	gm_m21	notype
	549	gds_m21	notype
	550	vdsat_m21	notype
	551	vth_m21	notype
	552	i(id_m21)	current
	553	ibd_m21	notype
	554	ibs_m21	notype
	555	gbd_m21	notype
	556	gbs_m21	notype
	557	isub_m21	notype
	558	igidl_m21	notype
	559	igisl_m21	notype
	560	igs_m21	notype
	561	igd_m21	notype
	562	igb_m21	notype
	563	igcs_m21	notype
	564	vbs_m21	notype
	565	vgs_m21	notype
	566	vds_m21	notype
	567	cgs_m21	notype
	568	cgd_m21	notype
	569	cbd_m21	notype
	570	cdg_m21	notype
	571	csg_m21	notype
	572	cdb_m21	notype
	573	gmbs_m22	notype
	574	gm_m22	notype
	575	gds_m22	notype
	576	vdsat_m22	notype
	577	vth_m22	notype
	578	i(id_m22)	current
	579	ibd_m22	notype
	580	ibs_m22	notype
	581	gbd_m22	notype
	582	gbs_m22	notype
	583	isub_m22	notype
	584	igidl_m22	notype
	585	igisl_m22	notype
	586	igs_m22	notype
	587	igd_m22	notype
	588	igb_m22	notype
	589	igcs_m22	notype
	590	vbs_m22	notype
	591	vgs_m22	notype
	592	vds_m22	notype
	593	cgs_m22	notype
	594	cgd_m22	notype
	595	cbd_m22	notype
	596	cdg_m22	notype
	597	csg_m22	notype
	598	cdb_m22	notype
	599	gmbs_m23	notype
	600	gm_m23	notype
	601	gds_m23	notype
	602	vdsat_m23	notype
	603	vth_m23	notype
	604	i(id_m23)	current
	605	ibd_m23	notype
	606	ibs_m23	notype
	607	gbd_m23	notype
	608	gbs_m23	notype
	609	isub_m23	notype
	610	igidl_m23	notype
	611	igisl_m23	notype
	612	igs_m23	notype
	613	igd_m23	notype
	614	igb_m23	notype
	615	igcs_m23	notype
	616	vbs_m23	notype
	617	vgs_m23	notype
	618	vds_m23	notype
	619	cgs_m23	notype
	620	cgd_m23	notype
	621	cbd_m23	notype
	622	cdg_m23	notype
	623	csg_m23	notype
	624	cdb_m23	notype
	625	dc_ib	notype
	626	acmag_ib	notype
	627	acphase_ib	notype
	628	acreal_ib	notype
	629	acimag_ib	notype
	630	v_ib	notype
	631	p_ib	notype
	632	i(current_ib)	current
	633	capacitance_c0	notype
	634	cap_c0	notype
	635	c_c0	notype
	636	ic_c0	notype
	637	temp_c0	notype
	638	dtemp_c0	notype
	639	w_c0	notype
	640	l_c0	notype
	641	m_c0	notype
	642	scale_c0	notype
	643	i(i_c0)	current
	644	p_c0	notype
	645	sens_dc_c0	notype
	646	sens_real_c0	notype
	647	sens_imag_c0	notype
	648	sens_mag_c0	notype
	649	sens_ph_c0	notype
	650	sens_cplx_c0	notype
	651	capacitance_c1	notype
	652	cap_c1	notype
	653	c_c1	notype
	654	ic_c1	notype
	655	temp_c1	notype
	656	dtemp_c1	notype
	657	w_c1	notype
	658	l_c1	notype
	659	m_c1	notype
	660	scale_c1	notype
	661	i(i_c1)	current
	662	p_c1	notype
	663	sens_dc_c1	notype
	664	sens_real_c1	notype
	665	sens_imag_c1	notype
	666	sens_mag_c1	notype
	667	sens_ph_c1	notype
	668	sens_cplx_c1	notype
Values:
 0	1.800000000000000e+00
	1.546885309389246e-05
	6.227857675729872e-05
	9.778765916046050e-08
	1.566313490574072e-01
	9.602965630784651e-01
	5.481603356381097e-06
	-7.608245259709457e-12
	6.160028487300906e-23
	7.000000000000108e-12
	8.985361689574533e-12
	3.537369978079076e-14
	0.000000000000000e+00
	0.000000000000000e+00
	0.000000000000000e+00
	0.000000000000000e+00
	0.000000000000000e+00
	0.000000000000000e+00
	1.371214253254038e-11
	1.076892179992522e+00
	1.076892179992522e+00
	-3.056792819177711e-14
	-5.047226947498412e-18
	-1.991721656619100e-18
	-1.131754940788406e-14
	-1.696041339810418e-14
	-2.933033246151504e-15
	1.548453370380156e-05
	6.234204804443953e-05
	9.275788968597082e-08
	1.566313491006584e-01
	9.602965630195125e-01
	5.487186578554174e-06
	-8.018687296662218e-12
	6.539108143854833e-23
	7.000000000000020e-12
	8.985361689598288e-12
	6.641987156986561e-14
	0.000000000000000e+00
	0.000000000000000e+00
	0.000000000000000e+00
	0.000000000000000e+00
	0.000000000000000e+00
	0.000000000000000e+00
	1.455568998665058e-11
	1.076892179992522e+00
	1.135526756701947e+00
	-3.056694010472290e-14
	-4.227482004948371e-18
	-1.668237203415755e-18
	-1.131597400764832e-14
	-1.696000313174781e-14
	-2.932576620405422e-15
	1.548453370380148e-05
	6.234204804443920e-05
	9.275788968599672e-08
	1.566313491006584e-01
	9.602965630195125e-01
	5.487186578554145e-06
	-8.018687296659969e-12
	6.539108143854833e-23
	7.000000000000020e-12
	8.985361689598288e-12
	6.641987156964921e-14
	0.000000000000000e+00
	0.000000000000000e+00
	0.000000000000000e+00
	0.000000000000000e+00
	0.000000000000000e+00
	0.000000000000000e+00
	1.455568998665058e-11
	1.076892179992522e+00
	1.135526756701626e+00
	-3.056694010472292e-14
	-4.227482004952402e-18
	-1.668237203417346e-18
	-1.131597400764834e-14
	-1.696000313174781e-14
	-2.932576620405442e-15
	1.546556372351067e-05
	6.226526234983016e-05
	9.888407715585600e-08
	1.566313490486629e-01
	9.602965630903839e-01
	5.480437657755063e-06
	-7.525263446763900e-12
	6.086207982036740e-23
	7.000000000000152e-12
	8.985361689569906e-12
	3.085374012588431e-14
	0.000000000000000e+00
	0.000000000000000e+00
	0.000000000000000e+00
	0.000000000000000e+00
	0.000000000000000e+00
	0.000000000000000e+00
	1.354782952489586e-11
	1.076892179992522e+00
	1.065037635285636e+00
	-3.056814810205408e-14
	-5.238148226004085e-18
	-2.067062243887818e-18
	-1.131790743107631e-14
	-1.696050677533461e-14
	-2.933136785196515e-15
	6.033498430704936e-05
	2.428662259298586e-04
	1.564697063084976e-06
	1.566313485426558e-01
	9.602965637800666e-01
	2.143947255551755e-05
	-1.088619110607890e-11
	8.733176848352286e-23
	2.800017142888790e-11
	3.594144675730127e-11
	7.898107565898012e-25
	0.000000000000000e+00
	0.000000000000000e+00
	0.000000000000000e+00
	0.000000000000000e+00
	0.000000000000000e+00
	0.000000000000000e+00
	4.860112312599085e-12
	1.076892179992522e+00
	3.787927553810349e-01
	-1.224798454807246e-13
	-8.801068190218061e-16
	-3.473042352031746e-16
	-4.619608276737620e-14
	-6.810052527067381e-14
	-1.198341559402509e-14
	6.999979191472169e-06
	2.757609355786507e-05
	3.630729014438229e-08
	1.030031714867385e-01
	9.602965631612896e-01
	1.850905110660905e-06
	-7.031513906122854e-12
	5.654457346793151e-23
	7.000000000001117e-12
	8.985361689542848e-12
	8.465003186538241e-15
	0.000000000000000e+00
	0.000000000000000e+00
	0.000000000000000e+00
	0.000000000000000e+00
	0.000000000000000e+00
	0.000000000000000e+00
	1.258637638557047e-11
	9.945019866203904e-01
	9.945019866203904e-01
	-2.624706859112084e-14
	-4.140411956763120e-18
	-1.633876995419503e-18
	-9.786916272111451e-15
	-1.466624502279379e-14
	-2.580818879028776e-15
	7.002894350792245e-06
	2.758762474376029e-05
	3.559830662124288e-08
	1.030031714989874e-01
	9.602965631388689e-01
	1.851707041511257e-06
	-7.187662362068210e-12
	5.783743484144566e-23
	7.000000000000595e-12
	8.985361689550952e-12
	1.102407111316677e-14
	0.000000000000000e+00
	0.000000000000000e+00
	0.000000000000000e+00
	0.000000000000000e+00
	0.000000000000000e+00
	0.000000000000000e+00
	1.287436823815824e-11
	9.945019866203904e-01
	1.016808908898997e+00
	-2.624668971436074e-14
	-3.853735947645019e-18
	-1.520750061366597e-18
	-9.786338924346598e-15
	-1.466609440268339e-14
	-2.580649664512573e-15
	1.547125098615255e-05
	6.228828274890182e-05
	9.699757097012819e-08
	1.566313490638519e-01
	9.602965630696809e-01
	5.482454336163551e-06
	-7.669409395978462e-12
	6.215094661143894e-23
	7.000000000000086e-12
	8.985361689577982e-12
	3.904129661365190e-14
	0.000000000000000e+00
	0.000000000000000e+00
	0.000000000000000e+00
	0.000000000000000e+00
	0.000000000000000e+00
	0.000000000000000e+00
	1.383471115445900e-11
	1.076892179992522e+00
	1.085629913745517e+00
	-3.056777069980779e-14
	-4.912389705660545e-18
	-1.938512726397850e-18
	-1.131729465704514e-14
	-1.696034698679191e-14
	-2.932959522204860e-15
	4.724519798250237e-05
	1.793912459097000e-04
	9.503424334224118e-07
	7.260133202593434e-02
	9.943754629339655e-01
	1.071042596626421e-05
	-7.899901760030128e-12
	1.756542559938623e-19
	6.000000000000001e-12
	7.701739691522951e-12
	1.094345331633551e-08
	2.433729452261904e-34
	0.000000000000000e+00
	0.000000000000000e+00
	0.000000000000000e+00
	0.000000000000000e+00
	0.000000000000000e+00
	4.561417976667315e-08
	9.712262581720978e-01
	1.306650316178361e+00
	-9.250958624163467e-14
	2.025742580684723e-16
	2.797274864648536e-17
	-3.303544911623276e-14
	-4.953043322253459e-14
	-9.046865899903550e-15
	4.723183771946095e-05
	1.793398524947176e-04
	9.500366029348100e-07
	7.259485899887502e-02
	9.943750706077843e-01
	1.070714541212026e-05
	-7.900721514670203e-12
	1.758043882871263e-19
	6.000000000000001e-12
	7.701739692463799e-12
	1.095280974124345e-08
	2.528479538418154e-34
	0.000000000000000e+00
	0.000000000000000e+00
	0.000000000000000e+00
	0.000000000000000e+00
	0.000000000000000e+00
	4.565316680249509e-08
	9.712072446189652e-01
	1.306786941971203e+00
	-9.250428529009394e-14
	2.025640686875858e-16
	2.797275179768195e-17
	-3.303363429928750e-14
	-4.952771782759595e-14
	-9.046396746259102e-15
	2.367556040107095e-05
	8.669610301749866e-05
	5.908991250574052e-08
	7.599691303021555e-02
	1.021938929191020e+00
	5.252017713722257e-06
	-3.556947581411587e-11
	2.995428904917219e-22
	2.700000000000000e-11
	3.465782366017565e-11
	8.841488105461978e-13
	1.710769497239188e-38
	0.000000000000000e+00
	0.000000000000000e+00
	0.000000000000000e+00
	0.000000000000000e+00
	0.000000000000000e+00
	1.728639453801861e-11
	1.016808908898997e+00
	1.307387993156981e+00
